Circuit: * C:\users\enriqueantunano\ltspice_files\hw3_p5c_eantunano.asc

Direct Newton iteration failed to find .op point.  (Use ".option noopiter" to skip.)
Starting Gmin stepping
Gmin = 10
Gmin = 1.07374
Gmin = 0.115292
Gmin = 0.0123794
Gmin = 0.00132923
Gmin = 0.000142725
Gmin = 1.5325e-005
Gmin = 1.6455e-006
Gmin = 1.76685e-007
Gmin = 1.89714e-008
Gmin = 2.03704e-009
Gmin = 2.18725e-010
Gmin = 2.34854e-011
Gmin = 2.52173e-012
Gmin = 2.70769e-013
Gmin = 0
Gmin stepping succeeded in finding the operating point.

Semiconductor Device Operating Points:
                        --- Diodes ---
Name:    d:u6:2      d:u6:4      d:u6:3      d:u6:6      d:u6:1
Model:    u6:iq       u6:x        u6:x        u6:y        u6:y
Id:      4.67e-03   -1.50e-10   -1.50e-10   -7.31e-20    7.31e-20
Vd:      3.00e+01   -1.50e+01   -1.50e+01   -7.30e-08    7.30e-08
Req:     5.00e-04    1.00e-11    1.00e-11    1.00e-12    1.00e-12
CAP:     0.00e+00    0.00e+00    0.00e+00    0.00e+00    0.00e+00

Name:    d:u5:2      d:u5:4      d:u5:3      d:u5:6      d:u5:1
Model:    u5:iq       u5:x        u5:x        u5:y        u5:y
Id:      4.67e-03   -1.50e-10   -1.50e-10   -7.27e-20    7.27e-20
Vd:      3.00e+01   -1.50e+01   -1.50e+01   -7.26e-08    7.26e-08
Req:     5.00e-04    1.00e-11    1.00e-11    1.00e-12    1.00e-12
CAP:     0.00e+00    0.00e+00    0.00e+00    0.00e+00    0.00e+00

Name:    d:u4:2      d:u4:4      d:u4:3      d:u4:6      d:u4:1
Model:    u4:iq       u4:x        u4:x        u4:y        u4:y
Id:      4.67e-03   -1.50e-10   -1.50e-10   -2.16e-20    2.16e-20
Vd:      3.00e+01   -1.50e+01   -1.50e+01   -2.16e-08    2.16e-08
Req:     5.00e-04    1.00e-11    1.00e-11    1.00e-12    1.00e-12
CAP:     0.00e+00    0.00e+00    0.00e+00    0.00e+00    0.00e+00

Name:    d:u3:2      d:u3:4      d:u3:3      d:u3:6      d:u3:1
Model:    u3:iq       u3:x        u3:x        u3:y        u3:y
Id:      4.67e-03   -1.15e-10   -1.85e-10    7.41e-14   -7.41e-14
Vd:      3.00e+01   -1.15e+01   -1.85e+01    7.40e-02   -7.40e-02
Req:     5.00e-04    1.00e-11    1.00e-11    1.00e-12    1.00e-12
CAP:     0.00e+00    0.00e+00    0.00e+00    0.00e+00    0.00e+00

Name:    d:u2:2      d:u2:4      d:u2:3      d:u2:6      d:u2:1
Model:    u2:iq       u2:x        u2:x        u2:y        u2:y
Id:      4.67e-03   -1.15e-10   -1.85e-10    7.26e-14   -7.26e-14
Vd:      3.00e+01   -1.15e+01   -1.85e+01    7.25e-02   -7.25e-02
Req:     5.00e-04    1.00e-11    1.00e-11    1.00e-12    1.00e-12
CAP:     0.00e+00    0.00e+00    0.00e+00    0.00e+00    0.00e+00

Name:    d:u1:2      d:u1:4      d:u1:3      d:u1:6      d:u1:1
Model:    u1:iq       u1:x        u1:x        u1:y        u1:y
Id:      4.67e-03   -1.51e-10   -1.49e-10   -7.26e-14    7.26e-14
Vd:      3.00e+01   -1.51e+01   -1.49e+01   -7.25e-02    7.25e-02
Req:     5.00e-04    1.00e-11    1.00e-11    1.00e-12    1.00e-12
CAP:     0.00e+00    0.00e+00    0.00e+00    0.00e+00    0.00e+00

                        --- VDMOSFET Transistors ---
Name:        m:u6:2      m:u6:1      m:u5:2      m:u5:1      m:u4:2
Model:        u6:p        u6:n        u5:p        u5:n        u4:p
Id:         -2.26e-04    2.26e-04   -2.26e-04    2.26e-04   -2.26e-04
Vgs:         7.30e-08    7.30e-08    7.26e-08    7.26e-08    2.16e-08
Vds:        -1.50e+01    1.50e+01   -1.50e+01    1.50e+01   -1.50e+01
Vth:         2.50e-01   -2.50e-01    2.50e-01   -2.50e-01    2.50e-01
Gm:          1.17e-03    1.17e-03    1.17e-03    1.17e-03    1.17e-03
Gds:         0.00e+00    0.00e+00    0.00e+00    0.00e+00    0.00e+00
Cgs:         0.00e+00    0.00e+00    0.00e+00    0.00e+00    0.00e+00
Cgd:         0.00e+00    0.00e+00    0.00e+00    0.00e+00    0.00e+00
Cbody:       0.00e+00    0.00e+00    0.00e+00    0.00e+00    0.00e+00

Name:        m:u4:1      m:u3:2      m:u3:1      m:u2:2      m:u2:1
Model:        u4:n        u3:p        u3:n        u2:p        u2:n
Id:          2.26e-04   -3.24e-04    1.51e-04   -3.22e-04    1.52e-04
Vgs:         2.16e-08   -7.40e-02   -7.40e-02   -7.25e-02   -7.25e-02
Vds:         1.50e+01   -1.16e+01    1.84e+01   -1.16e+01    1.84e+01
Vth:        -2.50e-01    2.50e-01   -2.50e-01    2.50e-01   -2.50e-01
Gm:          1.17e-03    1.50e-03    8.67e-04    1.50e-03    8.73e-04
Gds:         0.00e+00    0.00e+00    0.00e+00    0.00e+00    0.00e+00
Cgs:         0.00e+00    0.00e+00    0.00e+00    0.00e+00    0.00e+00
Cgd:         0.00e+00    0.00e+00    0.00e+00    0.00e+00    0.00e+00
Cbody:       0.00e+00    0.00e+00    0.00e+00    0.00e+00    0.00e+00

Name:        m:u1:2      m:u1:1
Model:        u1:p        u1:n
Id:         -1.52e-04    3.22e-04
Vgs:         7.25e-02    7.25e-02
Vds:        -1.50e+01    1.50e+01
Vth:         2.50e-01   -2.50e-01
Gm:          8.73e-04    1.50e-03
Gds:         0.00e+00    0.00e+00
Cgs:         0.00e+00    0.00e+00
Cgd:         0.00e+00    0.00e+00
Cbody:       0.00e+00    0.00e+00



Date: Wed May 21 23:46:58 2025
Total elapsed time: 0.105 seconds.

tnom = 27
temp = 27
method = trap
totiter = 366
traniter = 0
tranpoints = 0
accept = 0
rejected = 0
matrix size = 47
fillins = 67
solver = Normal
Matrix Compiler1:     343 opcodes
Matrix Compiler2: 6.66 KB object code size  0.6/0.5/[0.4]

