Circuit: * C:\users\enriqueantunano\ltspice_files\hw3_p5c_vcm10v_eantunano.asc

Direct Newton iteration failed to find .op point.  (Use ".option noopiter" to skip.)
Starting Gmin stepping
Gmin = 10
Gmin = 1.07374
Gmin = 0.115292
Gmin = 0.0123794
Gmin = 0.00132923
Gmin = 0.000142725
Gmin = 1.5325e-005
Gmin = 1.6455e-006
Gmin = 1.76685e-007
Gmin = 1.89714e-008
Gmin = 2.03704e-009
Gmin = 2.18725e-010
Gmin = 2.34854e-011
Gmin = 2.52173e-012
Gmin = 2.70769e-013
Gmin = 0
Gmin stepping succeeded in finding the operating point.

Semiconductor Device Operating Points:
                        --- Diodes ---
Name:    d:u6:2      d:u6:4      d:u6:3      d:u6:6      d:u6:1
Model:    u6:iq       u6:x        u6:x        u6:y        u6:y
Id:      4.67e-03   -2.52e-10   -4.79e-11   -2.08e-13    2.08e-13
Vd:      3.00e+01   -2.52e+01   -4.79e+00   -2.08e-01    2.08e-01
Req:     5.00e-04    1.00e-11    1.00e-11    1.00e-12    1.00e-12
CAP:     0.00e+00    0.00e+00    0.00e+00    0.00e+00    0.00e+00

Name:    d:u5:2      d:u5:4      d:u5:3      d:u5:6      d:u5:1
Model:    u5:iq       u5:x        u5:x        u5:y        u5:y
Id:      4.67e-03   -2.52e-10   -4.80e-11   -2.04e-13    2.04e-13
Vd:      3.00e+01   -2.52e+01   -4.80e+00   -2.04e-01    2.04e-01
Req:     5.00e-04    1.00e-11    1.00e-11    1.00e-12    1.00e-12
CAP:     0.00e+00    0.00e+00    0.00e+00    0.00e+00    0.00e+00

Name:    d:u4:2      d:u4:4      d:u4:3      d:u4:6      d:u4:1
Model:    u4:iq       u4:x        u4:x        u4:y        u4:y
Id:      4.67e-03   -1.48e-10   -1.52e-10    2.04e-13   -2.04e-13
Vd:      3.00e+01   -1.48e+01   -1.52e+01    2.04e-01   -2.04e-01
Req:     5.00e-04    1.00e-11    1.00e-11    1.00e-12    1.00e-12
CAP:     0.00e+00    0.00e+00    0.00e+00    0.00e+00    0.00e+00

Name:    d:u3:2      d:u3:4      d:u3:3      d:u3:6      d:u3:1
Model:    u3:iq       u3:x        u3:x        u3:y        u3:y
Id:      4.67e-03   -8.80e-11   -2.12e-10    6.99e-13   -6.99e-13
Vd:      3.00e+01   -8.80e+00   -2.12e+01    6.99e-01   -6.99e-01
Req:     5.00e-04    1.00e-11    1.00e-11    1.00e-12    1.00e-12
CAP:     0.00e+00    0.00e+00    0.00e+00    0.00e+00    0.00e+00

Name:    d:u2:2      d:u2:4      d:u2:3      d:u2:6      d:u2:1
Model:    u2:iq       u2:x        u2:x        u2:y        u2:y
Id:      4.67e-03   -1.43e-10   -1.57e-10   -6.70e-13    6.70e-13
Vd:      3.00e+01   -1.43e+01   -1.57e+01   -6.69e-01    6.69e-01
Req:     5.00e-04    1.00e-11    1.00e-11    1.00e-12    1.00e-12
CAP:     0.00e+00    0.00e+00    0.00e+00    0.00e+00    0.00e+00

Name:    d:u1:2      d:u1:4      d:u1:3      d:u1:6      d:u1:1
Model:    u1:iq       u1:x        u1:x        u1:y        u1:y
Id:      4.67e-03   -1.08e-10   -1.92e-10    5.97e-14   -5.97e-14
Vd:      3.00e+01   -1.08e+01   -1.92e+01    5.96e-02   -5.96e-02
Req:     5.00e-04    1.00e-11    1.00e-11    1.00e-12    1.00e-12
CAP:     0.00e+00    0.00e+00    0.00e+00    0.00e+00    0.00e+00

                        --- VDMOSFET Transistors ---
Name:        m:u6:2      m:u6:1      m:u5:2      m:u5:1      m:u4:2
Model:        u6:p        u6:n        u5:p        u5:n        u4:p
Id:         -6.46e-05    5.70e-04   -6.63e-05    5.61e-04   -5.61e-04
Vgs:         2.08e-01    2.08e-01    2.04e-01    2.04e-01   -2.04e-01
Vds:        -2.50e+01    5.00e+00   -2.50e+01    5.00e+00   -1.50e+01
Vth:         2.50e-01   -2.50e-01    2.50e-01   -2.50e-01    2.50e-01
Gm:          4.44e-04    2.17e-03    4.53e-04    2.15e-03    2.15e-03
Gds:         0.00e+00    0.00e+00    0.00e+00    0.00e+00    0.00e+00
Cgs:         0.00e+00    0.00e+00    0.00e+00    0.00e+00    0.00e+00
Cgd:         0.00e+00    0.00e+00    0.00e+00    0.00e+00    0.00e+00
Cbody:       0.00e+00    0.00e+00    0.00e+00    0.00e+00    0.00e+00

Name:        m:u4:1      m:u3:2      m:u3:1      m:u2:2      m:u2:1
Model:        u4:n        u3:p        u3:n        u2:p        u2:n
Id:          6.63e-05   -2.26e-03    1.02e-06   -1.35e-06    2.12e-03
Vgs:        -2.04e-01   -6.99e-01   -6.99e-01    6.69e-01    6.69e-01
Vds:         1.50e+01   -9.50e+00    2.05e+01   -1.37e+01    1.63e+01
Vth:        -2.50e-01    2.50e-01   -2.50e-01    2.50e-01   -2.50e-01
Gm:          4.53e-04    4.71e-03    9.66e-06    1.27e-05    4.56e-03
Gds:         0.00e+00    0.00e+00    0.00e+00    0.00e+00    0.00e+00
Cgs:         0.00e+00    0.00e+00    0.00e+00    0.00e+00    0.00e+00
Cgd:         0.00e+00    0.00e+00    0.00e+00    0.00e+00    0.00e+00
Cbody:       0.00e+00    0.00e+00    0.00e+00    0.00e+00    0.00e+00

Name:        m:u1:2      m:u1:1
Model:        u1:p        u1:n
Id:         -3.03e-04    1.63e-04
Vgs:        -5.96e-02   -5.96e-02
Vds:        -1.08e+01    1.92e+01
Vth:         2.50e-01   -2.50e-01
Gm:          1.44e-03    9.22e-04
Gds:         0.00e+00    0.00e+00
Cgs:         0.00e+00    0.00e+00
Cgd:         0.00e+00    0.00e+00
Cbody:       0.00e+00    0.00e+00



Date: Thu May 22 00:47:10 2025
Total elapsed time: 0.140 seconds.

tnom = 27
temp = 27
method = trap
totiter = 402
traniter = 0
tranpoints = 0
accept = 0
rejected = 0
matrix size = 47
fillins = 67
solver = Normal
Matrix Compiler1:     355 opcodes
Matrix Compiler2: off  [0.4]/0.5/0.4

